Sample in Buffer,Sample in Window,TRIGGER,FMsignal_sys_scaled[31:0],I_FIR_data_tvalid,I_FIR2_data_tvalid,Dac_Out_Sig[11:0]
0,0,0,-368194619,0,0,1701
1,1,0,-368194619,0,0,1701
2,2,0,-368194619,0,0,1701
3,3,0,-368194619,0,0,1701
4,4,0,-368194619,0,0,1701
5,5,0,-368194619,0,0,1701
6,6,0,-368194619,0,0,1701
7,7,0,-368194619,0,0,1701
8,8,0,-368194619,0,0,1701
9,9,0,-368194619,0,0,1701
10,10,0,-368194619,0,0,1701
11,11,0,-368194619,0,0,1701
12,12,0,-368194619,0,0,1701
13,13,0,-368194619,0,0,1701
14,14,0,-368194619,0,0,1701
15,15,0,-368194619,0,0,1701
16,16,0,-368194619,0,0,1701
17,17,0,-368194619,0,0,1701
18,18,0,-368194619,0,0,1701
19,19,0,-368194619,0,0,1701
20,20,0,-368194619,0,0,1701
21,21,0,-368194619,0,0,1701
22,22,0,-368194619,0,0,1701
23,23,0,-368194619,0,0,1701
24,24,0,-368194619,0,0,1701
25,25,0,-368194619,0,0,1701
26,26,0,-368194619,0,0,1701
27,27,0,-368194619,0,0,1701
28,28,0,-368194619,0,0,1701
29,29,0,-368194619,0,0,1701
30,30,0,-368194619,0,0,1701
31,31,0,-368194619,0,0,1701
32,32,0,-368194619,0,0,1701
33,33,0,-368194619,0,0,1701
34,34,0,-368194619,0,0,1701
35,35,0,-368194619,0,0,1701
36,36,0,-368194619,0,0,1701
37,37,0,-368194619,0,0,1701
38,38,0,-368194619,0,0,1701
39,39,0,-368194619,0,0,1701
40,40,0,-368194619,0,0,1701
41,41,0,-368194619,0,0,1701
42,42,0,-368194619,0,0,1701
43,43,0,-368194619,0,0,1701
44,44,0,-368194619,0,0,1701
45,45,0,-368194619,0,0,1701
46,46,0,-368194619,0,0,1701
47,47,0,-368194619,0,0,1701
48,48,0,-368194619,0,0,1701
49,49,0,-368194619,1,0,1701
50,50,0,-368194619,0,0,1701
51,51,0,-368194619,0,0,1701
52,52,0,-368194619,0,0,1701
53,53,0,-368194619,0,0,1701
54,54,0,-368194619,0,0,1701
55,55,0,-368194619,0,0,1701
56,56,0,-368194619,0,0,1701
57,57,0,-368194619,0,0,1701
58,58,0,-368194619,0,0,1701
59,59,0,-368194619,0,0,1701
60,60,0,-368194619,0,0,1701
61,61,0,-368194619,0,0,1701
62,62,0,-368194619,0,0,1701
63,63,0,-368194619,0,0,1701
64,64,0,-368194619,0,0,1701
65,65,0,-368194619,0,0,1701
66,66,0,-368194619,0,0,1701
67,67,0,-368194619,0,0,1701
68,68,0,-368194619,0,0,1701
69,69,0,-368194619,0,0,1701
70,70,0,-368194619,0,0,1701
71,71,0,-368194619,0,0,1701
72,72,0,-368194619,0,0,1701
73,73,0,-368194619,0,0,1701
74,74,0,-370292274,0,0,1701
75,75,0,-370292274,0,0,1701
76,76,0,-370292274,0,0,1701
77,77,0,-370292274,0,0,1701
78,78,0,-370292274,0,0,1701
79,79,0,-370292274,0,0,1701
80,80,0,-370292274,0,0,1701
81,81,0,-370292274,0,0,1701
82,82,0,-370292274,0,0,1701
83,83,0,-370292274,0,0,1701
84,84,0,-370292274,0,0,1701
85,85,0,-370292274,0,0,1701
86,86,0,-370292274,0,0,1701
87,87,0,-370292274,0,0,1701
88,88,0,-370292274,0,0,1701
89,89,0,-370292274,0,0,1701
90,90,0,-370292274,0,0,1701
91,91,0,-370292274,0,0,1701
92,92,0,-370292274,0,0,1701
93,93,0,-370292274,0,0,1701
94,94,0,-370292274,0,0,1701
95,95,0,-370292274,0,0,1701
96,96,0,-370292274,0,0,1701
97,97,0,-370292274,0,0,1701
98,98,0,-370292274,0,0,1701
99,99,0,-370292274,0,0,1701
100,100,0,-370292274,0,0,1701
101,101,0,-370292274,0,0,1701
102,102,0,-370292274,0,0,1701
103,103,0,-370292274,0,0,1701
104,104,0,-370292274,0,0,1701
105,105,0,-370292274,0,0,1701
106,106,0,-370292274,0,0,1701
107,107,0,-370292274,0,0,1701
108,108,0,-370292274,0,0,1701
109,109,0,-370292274,0,0,1701
110,110,0,-370292274,0,0,1701
111,111,0,-370292274,0,0,1701
112,112,0,-370292274,0,0,1701
113,113,0,-370292274,0,0,1701
114,114,0,-370292274,0,0,1701
115,115,0,-370292274,0,0,1701
116,116,0,-370292274,0,0,1701
117,117,0,-370292274,0,0,1701
118,118,0,-370292274,0,0,1701
119,119,0,-370292274,0,0,1701
120,120,0,-370292274,0,0,1701
121,121,0,-370292274,0,0,1701
122,122,0,-370292274,0,0,1701
123,123,0,-370292274,0,0,1701
124,124,0,-370292274,0,0,1701
125,125,0,-370292274,0,0,1701
126,126,0,-370292274,0,0,1701
127,127,0,-370292274,0,0,1701
128,128,0,-370292274,0,0,1701
129,129,0,-370292274,0,0,1701
130,130,0,-370292274,0,0,1701
131,131,0,-370292274,0,0,1701
132,132,0,-370292274,0,0,1701
133,133,0,-370292274,0,0,1701
134,134,0,-370292274,0,0,1701
135,135,0,-370292274,0,0,1701
136,136,0,-370292274,0,0,1701
137,137,0,-370292274,0,0,1701
138,138,0,-370292274,0,0,1701
139,139,0,-370292274,0,0,1701
140,140,0,-370292274,0,0,1701
141,141,0,-370292274,0,0,1701
142,142,0,-370292274,0,0,1701
143,143,0,-370292274,0,0,1701
144,144,0,-370292274,0,0,1701
145,145,0,-370292274,0,0,1701
146,146,0,-370292274,0,0,1701
147,147,0,-370292274,0,0,1701
148,148,0,-370292274,0,0,1701
149,149,0,-370292274,1,0,1701
150,150,0,-370292274,0,0,1701
151,151,0,-370292274,0,0,1701
152,152,0,-370292274,0,0,1701
153,153,0,-370292274,0,0,1701
154,154,0,-370292274,0,0,1701
155,155,0,-370292274,0,0,1701
156,156,0,-370292274,0,0,1701
157,157,0,-370292274,0,0,1701
158,158,0,-370292274,0,0,1701
159,159,0,-370292274,0,0,1701
160,160,0,-370292274,0,0,1701
161,161,0,-370292274,0,0,1701
162,162,0,-370292274,0,0,1701
163,163,0,-370292274,0,0,1701
164,164,0,-370292274,0,0,1701
165,165,0,-370292274,0,0,1701
166,166,0,-370292274,0,0,1701
167,167,0,-370292274,0,0,1701
168,168,0,-370292274,0,0,1701
169,169,0,-370292274,0,0,1701
170,170,0,-370292274,0,0,1701
171,171,0,-370292274,0,0,1701
172,172,0,-370292274,0,0,1701
173,173,0,-370292274,0,0,1701
174,174,0,-369393831,0,0,1701
175,175,0,-369393831,0,0,1701
176,176,0,-369393831,0,0,1701
177,177,0,-369393831,0,0,1701
178,178,0,-369393831,0,0,1701
179,179,0,-369393831,0,0,1701
180,180,0,-369393831,0,0,1701
181,181,0,-369393831,0,0,1701
182,182,0,-369393831,0,0,1701
183,183,0,-369393831,0,0,1701
184,184,0,-369393831,0,0,1701
185,185,0,-369393831,0,0,1701
186,186,0,-369393831,0,0,1701
187,187,0,-369393831,0,0,1701
188,188,0,-369393831,0,0,1701
189,189,0,-369393831,0,0,1701
190,190,0,-369393831,0,0,1701
191,191,0,-369393831,0,0,1701
192,192,0,-369393831,0,0,1701
193,193,0,-369393831,0,0,1701
194,194,0,-369393831,0,0,1701
195,195,0,-369393831,0,0,1701
196,196,0,-369393831,0,0,1701
197,197,0,-369393831,0,0,1701
198,198,0,-369393831,0,0,1701
199,199,0,-369393831,0,0,1701
200,200,0,-369393831,0,0,1701
201,201,0,-369393831,0,0,1701
202,202,0,-369393831,0,0,1701
203,203,0,-369393831,0,0,1701
204,204,0,-369393831,0,0,1701
205,205,0,-369393831,0,0,1701
206,206,0,-369393831,0,0,1701
207,207,0,-369393831,0,0,1701
208,208,0,-369393831,0,0,1701
209,209,0,-369393831,0,0,1701
210,210,0,-369393831,0,0,1701
211,211,0,-369393831,0,0,1701
212,212,0,-369393831,0,0,1701
213,213,0,-369393831,0,0,1701
214,214,0,-369393831,0,0,1701
215,215,0,-369393831,0,0,1701
216,216,0,-369393831,0,0,1701
217,217,0,-369393831,0,0,1701
218,218,0,-369393831,0,0,1701
219,219,0,-369393831,0,0,1701
220,220,0,-369393831,0,0,1701
221,221,0,-369393831,0,0,1701
222,222,0,-369393831,0,0,1701
223,223,0,-369393831,0,0,1701
224,224,0,-369393831,0,0,1701
225,225,0,-369393831,0,0,1701
226,226,0,-369393831,0,0,1701
227,227,0,-369393831,0,0,1701
228,228,0,-369393831,0,0,1701
229,229,0,-369393831,0,0,1701
230,230,0,-369393831,0,0,1701
231,231,0,-369393831,0,0,1701
232,232,0,-369393831,0,0,1701
233,233,0,-369393831,0,0,1701
234,234,0,-369393831,0,0,1701
235,235,0,-369393831,0,0,1701
236,236,0,-369393831,0,0,1701
237,237,0,-369393831,0,0,1701
238,238,0,-369393831,0,0,1701
239,239,0,-369393831,0,0,1701
240,240,0,-369393831,0,0,1701
241,241,0,-369393831,0,0,1701
242,242,0,-369393831,0,0,1701
243,243,0,-369393831,0,0,1701
244,244,0,-369393831,0,0,1701
245,245,0,-369393831,0,0,1701
246,246,0,-369393831,0,0,1701
247,247,0,-369393831,0,0,1701
248,248,0,-369393831,0,0,1701
249,249,0,-369393831,1,0,1701
250,250,0,-369393831,0,0,1701
251,251,0,-369393831,0,0,1701
252,252,0,-369393831,0,0,1701
253,253,0,-369393831,0,0,1701
254,254,0,-369393831,0,0,1701
255,255,0,-369393831,0,0,1701
256,256,0,-369393831,0,0,1701
257,257,0,-369393831,0,0,1701
258,258,0,-369393831,0,0,1701
259,259,0,-369393831,0,0,1701
260,260,0,-369393831,0,0,1701
261,261,0,-369393831,0,0,1701
262,262,0,-369393831,0,0,1701
263,263,0,-369393831,0,0,1701
264,264,0,-369393831,0,0,1701
265,265,0,-369393831,0,0,1701
266,266,0,-369393831,0,0,1701
267,267,0,-369393831,0,0,1701
268,268,0,-369393831,0,0,1701
269,269,0,-369393831,0,0,1701
270,270,0,-369393831,0,0,1701
271,271,0,-369393831,0,0,1701
272,272,0,-369393831,0,0,1701
273,273,0,-369393831,0,0,1701
274,274,0,-364644195,0,0,1701
275,275,0,-364644195,0,0,1701
276,276,0,-364644195,0,0,1701
277,277,0,-364644195,0,0,1701
278,278,0,-364644195,0,0,1701
279,279,0,-364644195,0,0,1701
280,280,0,-364644195,0,0,1701
281,281,0,-364644195,0,0,1701
282,282,0,-364644195,0,0,1701
283,283,0,-364644195,0,0,1701
284,284,0,-364644195,0,0,1701
285,285,0,-364644195,0,0,1701
286,286,0,-364644195,0,0,1701
287,287,0,-364644195,0,0,1701
288,288,0,-364644195,0,0,1701
289,289,0,-364644195,0,0,1701
290,290,0,-364644195,0,0,1701
291,291,0,-364644195,0,0,1701
292,292,0,-364644195,0,0,1701
293,293,0,-364644195,0,0,1701
294,294,0,-364644195,0,0,1701
295,295,0,-364644195,0,0,1701
296,296,0,-364644195,0,0,1701
297,297,0,-364644195,0,0,1701
298,298,0,-364644195,0,0,1701
299,299,0,-364644195,0,0,1701
300,300,0,-364644195,0,0,1701
301,301,0,-364644195,0,0,1701
302,302,0,-364644195,0,0,1701
303,303,0,-364644195,0,0,1701
304,304,0,-364644195,0,0,1701
305,305,0,-364644195,0,0,1701
306,306,0,-364644195,0,0,1701
307,307,0,-364644195,0,0,1701
308,308,0,-364644195,0,0,1701
309,309,0,-364644195,0,0,1701
310,310,0,-364644195,0,0,1701
311,311,0,-364644195,0,0,1701
312,312,0,-364644195,0,0,1701
313,313,0,-364644195,0,0,1701
314,314,0,-364644195,0,0,1701
315,315,0,-364644195,0,0,1701
316,316,0,-364644195,0,0,1701
317,317,0,-364644195,0,0,1701
318,318,0,-364644195,0,0,1701
319,319,0,-364644195,0,0,1701
320,320,0,-364644195,0,0,1701
321,321,0,-364644195,0,0,1701
322,322,0,-364644195,0,0,1701
323,323,0,-364644195,0,0,1701
324,324,0,-364644195,0,0,1701
325,325,0,-364644195,0,0,1701
326,326,0,-364644195,0,0,1701
327,327,0,-364644195,0,0,1701
328,328,0,-364644195,0,0,1701
329,329,0,-364644195,0,0,1701
330,330,0,-364644195,0,0,1701
331,331,0,-364644195,0,0,1701
332,332,0,-364644195,0,0,1701
333,333,0,-364644195,0,0,1701
334,334,0,-364644195,0,0,1701
335,335,0,-364644195,0,0,1701
336,336,0,-364644195,0,0,1701
337,337,0,-364644195,0,0,1701
338,338,0,-364644195,0,0,1701
339,339,0,-364644195,0,0,1701
340,340,0,-364644195,0,0,1701
341,341,0,-364644195,0,0,1701
342,342,0,-364644195,0,0,1701
343,343,0,-364644195,0,0,1701
344,344,0,-364644195,0,0,1701
345,345,0,-364644195,0,0,1701
346,346,0,-364644195,0,0,1701
347,347,0,-364644195,0,0,1701
348,348,0,-364644195,0,0,1701
349,349,0,-364644195,1,0,1701
350,350,0,-364644195,0,0,1701
351,351,0,-364644195,0,0,1701
352,352,0,-364644195,0,0,1701
353,353,0,-364644195,0,0,1701
354,354,0,-364644195,0,0,1701
355,355,0,-364644195,0,0,1701
356,356,0,-364644195,0,0,1701
357,357,0,-364644195,0,0,1701
358,358,0,-364644195,0,0,1701
359,359,0,-364644195,0,0,1701
360,360,0,-364644195,0,0,1701
361,361,0,-364644195,0,0,1701
362,362,0,-364644195,0,0,1701
363,363,0,-364644195,0,0,1701
364,364,0,-364644195,0,0,1701
365,365,0,-364644195,0,0,1701
366,366,0,-364644195,0,0,1701
367,367,0,-364644195,0,0,1701
368,368,0,-364644195,0,0,1701
369,369,0,-364644195,0,0,1701
370,370,0,-364644195,0,0,1701
371,371,0,-364644195,0,0,1701
372,372,0,-364644195,0,0,1701
373,373,0,-364644195,0,0,1701
374,374,0,-365816496,0,0,1701
375,375,0,-365816496,0,0,1701
376,376,0,-365816496,0,0,1701
377,377,0,-365816496,0,0,1701
378,378,0,-365816496,0,0,1701
379,379,0,-365816496,0,0,1701
380,380,0,-365816496,0,0,1701
381,381,0,-365816496,0,0,1701
382,382,0,-365816496,0,0,1701
383,383,0,-365816496,0,0,1701
384,384,0,-365816496,0,0,1701
385,385,0,-365816496,0,0,1701
386,386,0,-365816496,0,0,1701
387,387,0,-365816496,0,0,1701
388,388,0,-365816496,0,0,1701
389,389,0,-365816496,0,0,1701
390,390,0,-365816496,0,0,1701
391,391,0,-365816496,0,0,1701
392,392,0,-365816496,0,0,1701
393,393,0,-365816496,0,0,1701
394,394,0,-365816496,0,0,1701
395,395,0,-365816496,0,0,1701
396,396,0,-365816496,0,0,1701
397,397,0,-365816496,0,0,1701
398,398,0,-365816496,0,0,1701
399,399,0,-365816496,0,0,1701
400,400,0,-365816496,0,0,1701
401,401,0,-365816496,0,0,1701
402,402,0,-365816496,0,0,1701
403,403,0,-365816496,0,0,1701
404,404,0,-365816496,0,0,1701
405,405,0,-365816496,0,0,1701
406,406,0,-365816496,0,0,1701
407,407,0,-365816496,0,0,1701
408,408,0,-365816496,0,0,1701
409,409,0,-365816496,0,0,1701
410,410,0,-365816496,0,0,1701
411,411,0,-365816496,0,0,1701
412,412,0,-365816496,0,0,1701
413,413,0,-365816496,0,0,1701
414,414,0,-365816496,0,0,1701
415,415,0,-365816496,0,0,1701
416,416,0,-365816496,0,0,1701
417,417,0,-365816496,0,0,1701
418,418,0,-365816496,0,0,1701
419,419,0,-365816496,0,0,1701
420,420,0,-365816496,0,0,1701
421,421,0,-365816496,0,0,1701
422,422,0,-365816496,0,0,1701
423,423,0,-365816496,0,0,1701
424,424,0,-365816496,0,0,1701
425,425,0,-365816496,0,0,1701
426,426,0,-365816496,0,0,1701
427,427,0,-365816496,0,0,1701
428,428,0,-365816496,0,0,1701
429,429,0,-365816496,0,0,1701
430,430,0,-365816496,0,0,1701
431,431,0,-365816496,0,0,1701
432,432,0,-365816496,0,0,1701
433,433,0,-365816496,0,0,1701
434,434,0,-365816496,0,0,1701
435,435,0,-365816496,0,0,1701
436,436,0,-365816496,0,0,1701
437,437,0,-365816496,0,0,1701
438,438,0,-365816496,0,0,1699
439,439,0,-365816496,0,0,1699
440,440,0,-365816496,0,0,1699
441,441,0,-365816496,0,0,1699
442,442,0,-365816496,0,0,1699
443,443,0,-365816496,0,0,1699
444,444,0,-365816496,0,0,1699
445,445,0,-365816496,0,0,1699
446,446,0,-365816496,0,0,1699
447,447,0,-365816496,0,0,1699
448,448,0,-365816496,0,0,1699
449,449,0,-365816496,1,0,1699
450,450,0,-365816496,0,0,1699
451,451,0,-365816496,0,0,1699
452,452,0,-365816496,0,0,1699
453,453,0,-365816496,0,0,1699
454,454,0,-365816496,0,0,1699
455,455,0,-365816496,0,0,1699
456,456,0,-365816496,0,0,1699
457,457,0,-365816496,0,0,1699
458,458,0,-365816496,0,0,1699
459,459,0,-365816496,0,0,1699
460,460,0,-365816496,0,0,1699
461,461,0,-365816496,0,0,1699
462,462,0,-365816496,0,0,1699
463,463,0,-365816496,0,0,1699
464,464,0,-365816496,0,0,1699
465,465,0,-365816496,0,0,1699
466,466,0,-365816496,0,1,1699
467,467,0,-365816496,0,0,1699
468,468,0,-365816496,0,0,1699
469,469,0,-365816496,0,0,1699
470,470,0,-365816496,0,0,1699
471,471,0,-365816496,0,0,1699
472,472,0,-365816496,0,0,1699
473,473,0,-365816496,0,0,1699
474,474,0,-372187499,0,0,1699
475,475,0,-372187499,0,0,1699
476,476,0,-372187499,0,0,1699
477,477,0,-372187499,0,0,1699
478,478,0,-372187499,0,0,1699
479,479,0,-372187499,0,0,1699
480,480,0,-372187499,0,0,1699
481,481,0,-372187499,0,0,1699
482,482,0,-372187499,0,0,1699
483,483,0,-372187499,0,0,1699
484,484,0,-372187499,0,0,1699
485,485,0,-372187499,0,0,1699
486,486,0,-372187499,0,0,1699
487,487,0,-372187499,0,0,1699
488,488,0,-372187499,0,0,1699
489,489,0,-372187499,0,0,1699
490,490,0,-372187499,0,0,1699
491,491,0,-372187499,0,0,1699
492,492,0,-372187499,0,0,1699
493,493,0,-372187499,0,0,1699
494,494,0,-372187499,0,0,1699
495,495,0,-372187499,0,0,1699
496,496,0,-372187499,0,0,1699
497,497,0,-372187499,0,0,1699
498,498,0,-372187499,0,0,1699
499,499,0,-372187499,0,0,1699
500,500,0,-372187499,0,0,1699
501,501,0,-372187499,0,0,1699
502,502,0,-372187499,0,0,1699
503,503,0,-372187499,0,0,1699
504,504,0,-372187499,0,0,1699
505,505,0,-372187499,0,0,1699
506,506,0,-372187499,0,0,1699
507,507,0,-372187499,0,0,1699
508,508,0,-372187499,0,0,1699
509,509,0,-372187499,0,0,1699
510,510,0,-372187499,0,0,1699
511,511,0,-372187499,0,0,1699
512,512,0,-372187499,0,0,1699
513,513,0,-372187499,0,0,1699
514,514,0,-372187499,0,0,1699
515,515,0,-372187499,0,0,1699
516,516,0,-372187499,0,0,1699
517,517,0,-372187499,0,0,1699
518,518,0,-372187499,0,0,1699
519,519,0,-372187499,0,0,1699
520,520,0,-372187499,0,0,1699
521,521,0,-372187499,0,0,1699
522,522,0,-372187499,0,0,1699
523,523,0,-372187499,0,0,1699
524,524,0,-372187499,0,0,1699
525,525,0,-372187499,0,0,1699
526,526,0,-372187499,0,0,1699
527,527,0,-372187499,0,0,1699
528,528,0,-372187499,0,0,1699
529,529,0,-372187499,0,0,1699
530,530,0,-372187499,0,0,1699
531,531,0,-372187499,0,0,1699
532,532,0,-372187499,0,0,1699
533,533,0,-372187499,0,0,1699
534,534,0,-372187499,0,0,1699
535,535,0,-372187499,0,0,1699
536,536,0,-372187499,0,0,1699
537,537,0,-372187499,0,0,1699
538,538,0,-372187499,0,0,1699
539,539,0,-372187499,0,0,1699
540,540,0,-372187499,0,0,1699
541,541,0,-372187499,0,0,1699
542,542,0,-372187499,0,0,1699
543,543,0,-372187499,0,0,1699
544,544,0,-372187499,0,0,1699
545,545,0,-372187499,0,0,1699
546,546,0,-372187499,0,0,1699
547,547,0,-372187499,0,0,1699
548,548,0,-372187499,0,0,1699
549,549,0,-372187499,1,0,1699
550,550,0,-372187499,0,0,1699
551,551,0,-372187499,0,0,1699
552,552,0,-372187499,0,0,1699
553,553,0,-372187499,0,0,1699
554,554,0,-372187499,0,0,1699
555,555,0,-372187499,0,0,1699
556,556,0,-372187499,0,0,1699
557,557,0,-372187499,0,0,1699
558,558,0,-372187499,0,0,1699
559,559,0,-372187499,0,0,1699
560,560,0,-372187499,0,0,1699
561,561,0,-372187499,0,0,1699
562,562,0,-372187499,0,0,1699
563,563,0,-372187499,0,0,1699
564,564,0,-372187499,0,0,1699
565,565,0,-372187499,0,0,1699
566,566,0,-372187499,0,0,1699
567,567,0,-372187499,0,0,1699
568,568,0,-372187499,0,0,1699
569,569,0,-372187499,0,0,1699
570,570,0,-372187499,0,0,1699
571,571,0,-372187499,0,0,1699
572,572,0,-372187499,0,0,1699
573,573,0,-372187499,0,0,1699
574,574,0,-374900032,0,0,1699
575,575,0,-374900032,0,0,1699
576,576,0,-374900032,0,0,1699
577,577,0,-374900032,0,0,1699
578,578,0,-374900032,0,0,1699
579,579,0,-374900032,0,0,1699
580,580,0,-374900032,0,0,1699
581,581,0,-374900032,0,0,1699
582,582,0,-374900032,0,0,1699
583,583,0,-374900032,0,0,1699
584,584,0,-374900032,0,0,1699
585,585,0,-374900032,0,0,1699
586,586,0,-374900032,0,0,1699
587,587,0,-374900032,0,0,1699
588,588,0,-374900032,0,0,1699
589,589,0,-374900032,0,0,1699
590,590,0,-374900032,0,0,1699
591,591,0,-374900032,0,0,1699
592,592,0,-374900032,0,0,1699
593,593,0,-374900032,0,0,1699
594,594,0,-374900032,0,0,1699
595,595,0,-374900032,0,0,1699
596,596,0,-374900032,0,0,1699
597,597,0,-374900032,0,0,1699
598,598,0,-374900032,0,0,1699
599,599,0,-374900032,0,0,1699
600,600,0,-374900032,0,0,1699
601,601,0,-374900032,0,0,1699
602,602,0,-374900032,0,0,1699
603,603,0,-374900032,0,0,1699
604,604,0,-374900032,0,0,1699
605,605,0,-374900032,0,0,1699
606,606,0,-374900032,0,0,1699
607,607,0,-374900032,0,0,1699
608,608,0,-374900032,0,0,1699
609,609,0,-374900032,0,0,1699
610,610,0,-374900032,0,0,1699
611,611,0,-374900032,0,0,1699
612,612,0,-374900032,0,0,1699
613,613,0,-374900032,0,0,1699
614,614,0,-374900032,0,0,1699
615,615,0,-374900032,0,0,1699
616,616,0,-374900032,0,0,1699
617,617,0,-374900032,0,0,1699
618,618,0,-374900032,0,0,1699
619,619,0,-374900032,0,0,1699
620,620,0,-374900032,0,0,1699
621,621,0,-374900032,0,0,1699
622,622,0,-374900032,0,0,1699
623,623,0,-374900032,0,0,1699
624,624,0,-374900032,0,0,1699
625,625,0,-374900032,0,0,1699
626,626,0,-374900032,0,0,1699
627,627,0,-374900032,0,0,1699
628,628,0,-374900032,0,0,1699
629,629,0,-374900032,0,0,1699
630,630,0,-374900032,0,0,1699
631,631,0,-374900032,0,0,1699
632,632,0,-374900032,0,0,1699
633,633,0,-374900032,0,0,1699
634,634,0,-374900032,0,0,1699
635,635,0,-374900032,0,0,1699
636,636,0,-374900032,0,0,1699
637,637,0,-374900032,0,0,1699
638,638,0,-374900032,0,0,1699
639,639,0,-374900032,0,0,1699
640,640,0,-374900032,0,0,1699
641,641,0,-374900032,0,0,1699
642,642,0,-374900032,0,0,1699
643,643,0,-374900032,0,0,1699
644,644,0,-374900032,0,0,1699
645,645,0,-374900032,0,0,1699
646,646,0,-374900032,0,0,1699
647,647,0,-374900032,0,0,1699
648,648,0,-374900032,0,0,1699
649,649,0,-374900032,1,0,1699
650,650,0,-374900032,0,0,1699
651,651,0,-374900032,0,0,1699
652,652,0,-374900032,0,0,1699
653,653,0,-374900032,0,0,1699
654,654,0,-374900032,0,0,1699
655,655,0,-374900032,0,0,1699
656,656,0,-374900032,0,0,1699
657,657,0,-374900032,0,0,1699
658,658,0,-374900032,0,0,1699
659,659,0,-374900032,0,0,1699
660,660,0,-374900032,0,0,1699
661,661,0,-374900032,0,0,1699
662,662,0,-374900032,0,0,1699
663,663,0,-374900032,0,0,1699
664,664,0,-374900032,0,0,1699
665,665,0,-374900032,0,0,1699
666,666,0,-374900032,0,0,1699
667,667,0,-374900032,0,0,1699
668,668,0,-374900032,0,0,1699
